time,V_C,I_L,V_IN,V_C
0.0,0.0,0.0,9.3865282487982,0.0
5e-07,0.08681555526324405,0.09248444658486589,4.316920856830068,0.08681555526324405
1e-06,0.30506938566907144,0.13321959384782106,2.30939412749812,0.30506938566907144
1.5e-06,0.5661486938691603,0.14858828546179473,4.1471599773330015,0.5661486938691603
2e-06,0.8667513491957876,0.18200156031974846,7.840749497841842,0.8667513491957876
2.4999999999999998e-06,1.2598907682072433,0.24397260685958266,7.572286666950303,1.2598907682072433
3e-06,1.7615950940645333,0.293039016069157,4.633527089102042,1.7615950940645333
3.5e-06,2.3231095229008,0.3096691446990817,3.1871575979903586,2.3231095229008
4e-06,2.8965840409735346,0.3074426399155378,3.7837343305238105,2.8965840409735346
4.5e-06,3.462360077760154,0.3044007040480374,8.106670239453388,3.462360077760154
4.9999999999999996e-06,4.055318751821783,0.33392149946431543,21.247785285412586,4.055318751821783
5.5e-06,4.786195916569243,0.4678964272980793,36.00150663088311,4.786195916569243
6e-06,5.884074337039792,0.7316623072103474,51.324408452764004,5.884074337039792
6.5e-06,7.593311396312628,1.1522225169678826,66.67709743534189,7.593311396312628
7e-06,10.243487590523989,1.7030114656491058,80.50844358507821,10.243487590523989
7.499999999999999e-06,13.979787576590905,2.355571817339239,91.19502798986885,13.979787576590905
8e-06,18.989242421723148,3.0551668498463362,100.24663597418132,18.989242421723148
8.5e-06,25.314650480348696,3.776891860544626,105.21432703810784,25.314650480348696
9e-06,32.95413844978185,4.467980517589039,107.04323462358235,32.95413844978185
9.499999999999999e-06,41.88932221943014,5.326737142773063,106.35127382384589,41.88932221943014
9.999999999999999e-06,54.14713578548774,7.968946846033825,106.16944620738221,54.14713578548774
1.05e-05,70.5601287705339,9.442421079914324,109.38285136670534,70.5601287705339
1.1e-05,88.2807028749324,9.498167335715102,108.35731965488024,88.2807028749324
1.15e-05,104.81912617016224,8.169576051652355,106.11090183627344,104.81912617016224
1.2e-05,118.24717126204665,6.294933883811915,99.62013230245553,118.24717126204665
1.2499999999999999e-05,128.22285417661786,4.806456367937091,92.06872182795763,128.22285417661786
1.3e-05,136.5848797604109,4.210399565317916,87.38286455870379,136.5848797604109
1.35e-05,143.75608001518344,3.5217927034522676,82.84888389481613,143.75608001518344
1.4e-05,149.5629166316731,2.7337344682327718,75.45379136581579,149.5629166316731
1.45e-05,153.84025035084295,1.8772751897241182,66.85606812696382,153.84025035084295
1.4999999999999999e-05,156.4708869213259,0.9467144166688204,59.956374922000094,156.4708869213259
1.55e-05,157.28099764583294,-0.07825107445539325,52.56377006465532,157.28099764583294
1.6e-05,156.1674890814087,-1.1237693967125948,46.16370734498693,156.1674890814087
1.6499999999999998e-05,153.10966446944363,-2.183104828762442,40.3317546456018,153.10966446944363
1.7e-05,148.08841304003826,-3.2316564934268714,35.01008692937452,148.08841304003826
1.75e-05,141.13995625490773,-4.263915402666099,35.39174722877067,141.13995625490773
1.8e-05,132.09205369965966,-6.066693060448203,36.81799415948084,132.09205369965966
1.85e-05,115.78061928594292,-11.32088521988451,33.37090362728715,115.78061928594292
1.8999999999999998e-05,91.66870470655505,-14.233653176245118,29.146691280040542,91.66870470655505
1.95e-05,64.61102730872383,-14.621725526138233,24.5013839902985,64.61102730872383
1.9999999999999998e-05,38.675653598724466,-13.142265753108914,21.61812320179988,38.675653598724466
2.05e-05,16.736380648365653,-10.3902233312501,17.607580642476798,16.736380648365653
2.1e-05,0.3578867746940033,-7.2924315925362535,13.764752779046015,0.3578867746940033
2.1499999999999997e-05,-10.801836569162372,-5.1073839484469605,12.147806227376362,-10.801836569162372
2.2e-05,-19.693091356568797,-4.53560351782125,12.2863894563051,-19.693091356568797
2.2499999999999998e-05,-27.60534296626959,-4.005114294730166,9.750030660048804,-27.60534296626959
2.3e-05,-34.51849649219189,-3.4568912276066794,5.838610314836221,-34.51849649219189
2.35e-05,-40.38875094359056,-2.885520711092829,0.8802575622939832,-40.38875094359056
2.4e-05,-45.230005349431025,-2.341350717658922,-3.8964476052256773,-45.230005349431025
2.45e-05,-49.08697106117694,-1.8308806732628269,-3.746033833914187,-49.08697106117694
2.4999999999999998e-05,-51.99457207450757,-1.3071216126972645,-2.4317067162237422,-51.99457207450757
2.55e-05,-53.912467573260265,-0.7618183803980547,-3.4994180997567703,-53.912467573260265
2.6e-05,-54.81442734043465,-0.21330221469482025,-1.5844323711961563,-54.81442734043465
2.65e-05,-54.70697152845616,0.33353963482184734,6.123155630972528,-54.70697152845616
2.7e-05,-53.53371423059379,0.9306152186583558,15.046706366545923,-53.53371423059379
2.7499999999999998e-05,-51.21359523282788,1.5836302221090384,18.930204204636365,-51.21359523282788
2.8e-05,-47.681317370650504,2.2227998117148995,20.736113848588808,-47.681317370650504
2.8499999999999998e-05,-43.00607743737205,2.8207618685568034,24.292172716643194,-43.00607743737205
2.9e-05,-37.24597208070891,3.392199022839599,26.303826718311196,-37.24597208070891
2.95e-05,-30.475641288411996,3.9105734401038004,28.836326844929204,-30.475641288411996
2.9999999999999997e-05,-22.799709732732165,4.374219993300581,32.14170041328799,-22.799709732732165
3.05e-05,-14.3006214150878,4.797586660480819,32.778080329147144,-14.3006214150878
3.1e-05,-4.96221256662392,5.354242607719585,30.348329892766067,-4.96221256662392
3.15e-05,5.665734345886139,6.039221029031988,19.817640400004727,5.665734345886139
3.2e-05,16.503985862526363,5.568079821653762,6.650753369850229,16.503985862526363
3.25e-05,26.104289303872584,4.833757749305387,-6.122153553016634,26.104289303872584
3.2999999999999996e-05,34.554150392709566,4.304370949851844,-18.58568147151965,34.554150392709566
3.35e-05,41.87144252197449,3.573503072101098,-26.37010623549571,41.87144252197449
3.4e-05,47.710149645696156,2.7126334962572076,-35.219827468663254,47.710149645696156
3.45e-05,51.83422614423351,1.7253040192433118,-43.89539518412611,51.83422614423351
3.5e-05,54.0744789798661,0.6903550526351132,-49.65137523884099,54.0744789798661
3.5499999999999996e-05,54.37142872414368,-0.3707725962979056,-51.34593252893442,54.37142872414368
3.6e-05,52.71566854370605,-1.4150482150958341,-54.115520873242176,52.71566854370605
3.65e-05,49.14790999752425,-2.4279756562446644,-53.959269179606345,49.14790999752425
3.7e-05,43.77086889442079,-3.368462404975327,-53.274956778358536,43.77086889442079
3.75e-05,36.71870292019735,-4.236384684483204,-54.24378402631839,36.71870292019735
3.7999999999999995e-05,28.06154219570658,-5.239562264853875,-53.8865788181263,28.06154219570658
3.85e-05,14.887632288997676,-9.141038612180818,-52.75147057269411,14.887632288997676
3.9e-05,-4.623153589308988,-11.543466718323426,-52.598143316366034,-4.623153589308988
3.95e-05,-26.459126850859683,-11.693031184625921,-52.4047134018631,-26.459126850859683
3.9999999999999996e-05,-46.85162664502423,-10.118537641096845,-52.56660926789264,-46.85162664502423
4.0499999999999995e-05,-63.238081768048346,-7.476312351672709,-51.7636885202006,-63.238081768048346
4.1e-05,-74.7558130764966,-5.199387357632688,-48.0438888235754,-74.7558130764966
4.15e-05,-83.52962419060847,-4.429825468121697,-41.23705131742607,-83.52962419060847
4.2e-05,-91.16760336565987,-3.8003736692039594,-35.994931559789954,-91.16760336565987
4.2499999999999996e-05,-97.6075459367076,-3.1507578436127206,-28.267478491012987,-97.6075459367076
4.2999999999999995e-05,-102.70477209796314,-2.3417476984952,-25.167342570022146,-102.70477209796314
4.35e-05,-106.26183957299287,-1.4964409825994944,-23.483204831344782,-106.26183957299287
4.4e-05,-108.2195221583665,-0.6125134043591169,-20.423322543609636,-108.2195221583665
4.45e-05,-108.51410517243643,0.29519051589172873,-17.129802867744925,-108.51410517243643
4.4999999999999996e-05,-107.13204531597447,1.1932222954594482,-15.710222176309415,-107.13204531597447
4.5499999999999995e-05,-104.1190317724653,2.057106584664129,-15.54486901697951,-104.1190317724653
4.6e-05,-99.5544545436852,2.8604047268455655,-16.904253240498953,-99.5544545436852
4.65e-05,-93.57650436998227,3.574547236774057,-18.997764680677523,-93.57650436998227
4.7e-05,-86.36498803273824,4.201361228636553,-18.655712562037994,-86.36498803273824
4.7499999999999996e-05,-78.06196834525802,4.75909089199073,-17.322637110936483,-78.06196834525802
4.8e-05,-68.49044682689399,5.784714114231164,-16.946021719067968,-68.49044682689399
4.85e-05,-55.961525339073866,7.675660436204436,-14.571292374903079,-55.961525339073866
4.9e-05,-40.79349991834,8.527300342841324,-10.771769383643349,-40.79349991834
4.95e-05,-25.046692067463944,8.299341833573738,-5.097579914260008,-25.046692067463944
4.9999999999999996e-05,-10.338755709774262,7.538456759292264,1.0133357106665186,-10.338755709774262
5.05e-05,2.5414499609696826,6.306699191778531,4.0689025872588225,2.5414499609696826
5.1e-05,13.089767664313264,5.184626441592774,5.218160282256071,13.089767664313264
5.15e-05,22.19971900176262,4.73010934354282,7.928320832089462,22.19971900176262
5.2e-05,30.643954229634332,4.377816122085494,11.9107968697088,30.643954229634332
5.2499999999999995e-05,38.372574693722505,3.9620864111070304,15.427141586820527,38.372574693722505
5.3e-05,45.33366102643822,3.5504532925786108,19.21727070178037,45.33366102643822
5.35e-05,51.53863656992198,3.1562268695072184,24.84383281982403,51.53863656992198
5.4e-05,57.028658284785,2.774098695668926,28.887614432095134,57.028658284785
5.4499999999999997e-05,61.801284619804385,2.384507491238845,32.76546948308474,61.801284619804385
5.4999999999999995e-05,65.84312130457288,1.9742128641602799,35.34036592546276,65.84312130457288
5.55e-05,69.1359039138105,1.581741326235769,37.18230927360995,69.1359039138105
5.6e-05,71.72050899523347,1.2129669947014796,41.31800339239,71.72050899523347
5.65e-05,73.64097220017025,0.862956687773467,47.37980731807691,73.64097220017025
5.6999999999999996e-05,74.92934101992181,0.5435634367914157,55.08650600727193,74.92934101992181
5.7499999999999995e-05,75.74232599276219,0.34568218439861653,64.42579554791632,75.74232599276219
5.8e-05,76.2612560285367,0.22719628335693798,72.68619919099672,76.2612560285367
5.85e-05,76.6207412258116,0.18116321210936742,80.2109650474644,76.6207412258116
5.9e-05,76.9783289933717,0.2090184440328433,85.49767564347952,76.9783289933717
5.9499999999999996e-05,77.42700543837171,0.285351187977692,89.55889709562703,77.42700543837171
5.9999999999999995e-05,78.05469088898812,0.39310761092769536,92.00820284221204,78.05469088898812
6.05e-05,78.8918496893002,0.5139935407209277,93.70200144948923,78.8918496893002
6.1e-05,79.96501645943437,0.6468130354209434,95.18594060852136,79.96501645943437
6.149999999999999e-05,81.28027630427454,0.7724348038994291,95.24115631460182,81.28027630427454
6.2e-05,82.81568664698358,0.8812706886297959,98.25513291303214,82.81568664698358
6.25e-05,84.55509433845559,0.9895162666923991,97.89195529425355,84.55509433845559
6.3e-05,86.47349977805189,1.0823969593483462,94.01307855554876,86.47349977805189
6.35e-05,88.521046585457,1.136655548064321,92.5130013231794,88.521046585457
6.4e-05,90.64143854906007,1.1492201000519073,93.33421484671439,90.64143854906007
6.45e-05,92.77193962595487,1.1372039682675892,95.45381626024077,92.77193962595487
6.5e-05,94.87714754291513,1.1312461345523217,98.13896907809065,94.87714754291513
6.549999999999999e-05,96.9768063606816,1.1268183207906328,99.21735778014815,96.9768063606816
6.599999999999999e-05,99.04115068152336,1.1029021820011402,97.13723003074838,99.04115068152336
6.65e-05,101.02224882162706,1.0436563833399204,93.81466262772268,101.02224882162706
6.7e-05,102.85511288229874,0.9385294977535039,89.29977761836776,102.85511288229874
6.75e-05,104.45769874996411,0.782260005978864,86.61343615099466,104.45769874996411
6.8e-05,105.73090609616833,0.5748762965434242,83.31979391128525,105.73090609616833
6.85e-05,106.57364428586264,0.3293380568534419,77.652471990615,106.57364428586264
6.9e-05,106.91035972039113,0.03292128969158166,71.34963267310641,106.91035972039113
6.95e-05,106.65499495740212,-0.32234053302659477,65.985047850461,106.65499495740212
7e-05,105.68942937621452,-0.7182033951304831,59.39673888518944,105.68942937621452
7.049999999999999e-05,103.95561104751192,-1.1671386846922132,51.37219434149825,103.95561104751192
7.099999999999999e-05,101.34491866037257,-1.6525290850623682,44.60105575192773,101.34491866037257
7.15e-05,97.81401993553371,-2.1649831562414965,39.05143261786367,97.81401993553371
7.2e-05,93.33183733734636,-2.668303312965731,32.811470116696576,93.33183733734636
7.25e-05,87.9487523992328,-3.15051569628842,26.161034280276528,87.9487523992328
7.3e-05,81.63222354654191,-3.671887844730577,19.868403740116374,81.63222354654191
7.35e-05,74.36554001843456,-4.1666088704672255,10.402203563150946,74.36554001843456
7.4e-05,66.16981246013833,-4.688212738230392,-1.9935509600630426,66.16981246013833
7.45e-05,56.66819033079413,-5.930718048762351,-14.725681428558806,56.66819033079413
7.5e-05,42.56393327462901,-9.342288544912506,-25.726147422262812,42.56393327462901
7.549999999999999e-05,22.62062668791766,-11.805199122437884,-32.980211160722625,22.62062668791766
7.599999999999999e-05,-0.13067304559523052,-12.421030947851492,-34.45846422856095,-0.13067304559523052
7.65e-05,-22.254246588745186,-11.196295332078595,-32.62103266200491,-22.254246588745186
7.7e-05,-40.709938342240335,-8.599898972625766,-30.729853353991796,-40.709938342240335
7.75e-05,-53.864022199869105,-5.7316080494102435,-29.654801520638895,-53.864022199869105
7.8e-05,-63.12117205914196,-4.553411026645835,-30.879416405057192,-63.12117205914196
7.85e-05,-71.09110666222288,-4.041440167405932,-32.38273809712022,-71.09110666222288
7.9e-05,-78.0482861450085,-3.4661893054263326,-33.80876330229874,-78.0482861450085
7.95e-05,-83.92493512345798,-2.875540816070633,-34.583968917914774,-83.92493512345798
7.999999999999999e-05,-88.69042655384692,-2.269148447611717,-36.34564691149406,-88.69042655384692
8.049999999999999e-05,-92.3275839045557,-1.6582067132904794,-35.7574806450018,-92.3275839045557
8.099999999999999e-05,-94.82744273744362,-1.0358548645254886,-31.134658790324888,-94.82744273744362
8.15e-05,-96.11803108504935,-0.35457688975122137,-26.220710818588405,-96.11803108504935
8.2e-05,-96.11932069192665,0.3584474352258273,-20.653222522751122,-96.11932069192665
8.25e-05,-94.80181611333066,1.0644656402487216,-14.312507044180887,-94.80181611333066
8.3e-05,-92.14546817780281,1.804913002296196,-9.409644925130202,-92.14546817780281
8.35e-05,-88.10389691038719,2.571163652243054,-5.000687500577475,-88.10389691038719
8.4e-05,-82.65349622353301,3.309901455752769,-1.1309676577230605,-82.65349622353301
8.45e-05,-75.89455631185729,3.9795300715380977,1.8072701974997802,-75.89455631185729
8.499999999999999e-05,-67.91124371965508,4.637627041045523,2.4530828971392,-67.91124371965508
8.549999999999999e-05,-58.466774739585134,5.89919314988796,2.8929556319681593,-58.466774739585134
8.599999999999999e-05,-45.00887413100996,8.54548757515633,5.3028463419067124,-45.00887413100996
8.65e-05,-27.77931776929948,9.886312231654237,11.500236690620564,-27.77931776929948
8.7e-05,-9.230905798973165,9.86522563384018,20.856053545744604,-9.230905798973165
8.75e-05,8.38470013621064,9.092204534119874,33.43916873086565,8.38470013621064
8.8e-05,24.589087265907366,8.261706942926958,43.37701258524406,24.589087265907366
8.85e-05,39.03503198297265,7.202503867112565,52.85165509123351,39.03503198297265
8.9e-05,51.55228163237124,6.329036761563589,62.39612911226212,51.55228163237124
8.95e-05,62.58636840235588,5.617921279151217,74.38550503556979,62.58636840235588
8.999999999999999e-05,72.62773948883435,5.212764419937944,82.33574313921459,72.62773948883435
9.049999999999999e-05,82.02103558229041,4.9581950245220305,85.30963972610792,82.02103558229041
9.099999999999999e-05,91.00481876254489,4.73853336815549,83.7889787889317,91.00481876254489
9.15e-05,99.52220563695758,4.439862502641296,76.14556657867003,99.52220563695758
9.2e-05,107.34835465599944,3.9857897603577777,66.31286096984374,107.34835465599944
9.25e-05,114.20870904037521,3.411397080183011,55.68104268532925,114.20870904037521
9.3e-05,119.90306739255864,2.710176688380666,46.61224387992682,119.90306739255864
9.35e-05,124.14644410514228,1.8564775595625675,40.806845012356476,124.14644410514228
9.4e-05,126.74554949576357,0.9501511807549401,40.8608875646557,126.74554949576357
9.449999999999999e-05,127.69800909357421,0.08082501321443591,43.454881448209875,127.69800909357421
9.499999999999999e-05,127.06201832503083,-0.7594167639257488,43.808384473225026,127.06201832503083
9.549999999999999e-05,124.8886628402424,-1.5770441597906868,41.57540194529533,124.8886628402424
9.6e-05,121.22986574606551,-2.3701038040285134,39.209860575781775,121.22986574606551
9.65e-05,116.13838760610476,-3.1282189468103403,35.22451679827513,116.13838760610476
9.7e-05,109.67927949608708,-3.8362284012435572,35.92876500195589,109.67927949608708
9.75e-05,102.01373961526497,-4.430484702222485,39.67835801641605,102.01373961526497
9.8e-05,93.30679461357086,-4.980735000871653,40.89047521999198,93.30679461357086
9.85e-05,83.02276501692558,-6.3350889305613025,38.06730409432606,83.02276501692558
9.9e-05,69.77364543432152,-7.758436754074057,37.560670509696074,69.77364543432152
9.949999999999999e-05,55.11051643578517,-7.876688950678576,38.054838822725905,55.11051643578517
9.999999999999999e-05,41.310796624306214,-6.8923489792968615,39.971533056550385,41.310796624306214
0.00010049999999999999,29.939402947303616,-5.4201727123773695,37.76009455235295,29.939402947303616
0.000101,20.640186366583645,-4.762398752246514,33.31595238000795,20.640186366583645
0.0001015,12.107863449417511,-4.443236705791676,29.08272099296261,12.107863449417511
0.000102,4.206873504490064,-4.0858557241117905,25.189229081722452,4.206873504490064
0.0001025,-3.0117775890694922,-3.710840677323838,21.127846307519544,-3.0117775890694922
0.000103,-9.536223381922,-3.3328732281427222,18.16327420052047,-9.536223381922
0.0001035,-15.333765240715998,-2.923537127691178,13.32717361765766,-15.333765240715998
0.000104,-20.362748100982095,-2.511206775719808,8.39189614543573,-20.362748100982095
0.00010449999999999999,-24.66001923699472,-2.131143808390995,4.795012251598966,-24.66001923699472
0.00010499999999999999,-28.25899180051115,-1.7557667977406912,3.518891327087461,-28.25899180051115
0.00010549999999999999,-31.135258464045382,-1.3532531968911001,3.7050340540227644,-31.135258464045382
0.000106,-33.29413256581215,-0.9745353272947204,0.6375428086730216,-33.29413256581215
0.0001065,-34.785720938278146,-0.6420878555233618,-5.317527208148182,-34.785720938278146
0.000107,-35.67750512668753,-0.3299970018159117,-7.798960565234616,-35.67750512668753
0.0001075,-36.01021320209487,-0.03508977113593342,-8.72936156278032,-36.01021320209487
0.000108,-35.82642416042287,0.22964789367974692,-10.026343389664504,-35.82642416042287
0.0001085,-35.16982205324843,0.47944581214798654,-7.705434658850401,-35.16982205324843
0.00010899999999999999,-34.037219814596774,0.7467541600509617,-3.8724565986684687,-34.037219814596774
0.00010949999999999999,-32.39976728191158,1.0225507101220461,2.172822528515086,-32.39976728191158
0.00010999999999999999,-30.212660708937946,1.3502371105315998,9.18850527589057,-30.212660708937946
0.00011049999999999999,-27.383997289030134,1.7133671423125227,20.801920049150585,-27.383997289030134
0.000111,-23.798354728386318,2.173138643141398,35.23444987893308,-23.798354728386318
0.0001115,-19.310813231172517,2.6768955328247808,47.72534646788143,-19.310813231172517
0.000112,-13.81938921361574,3.2706525487940237,60.05744534728698,-13.81938921361574
0.0001125,-7.17531518395938,3.907443112411145,72.50909531360503,-7.17531518395938
0.000113,0.7041143951844869,4.59135138584732,85.02222348896659,0.7041143951844869
0.0001135,10.314523535639385,6.383316918498116,93.41997420101279,10.314523535639385
0.00011399999999999999,26.097814006349118,10.485338294623132,101.17274059095476,26.097814006349118
