time,V_C,I_L,V_IN,V_C
0.0,0.0,0.0,-2.1326983915668074,0.0
5e-07,-0.019756470030564934,-0.02154961771299771,-10.606966790097163,-0.019756470030564934
1e-06,-0.15645399867063048,-0.13375646538210198,-20.21491833924857,-0.15645399867063048
1.5e-06,-0.5993566327009341,-0.364773129729044,-29.92346561783421,-0.5993566327009341
2e-06,-1.5423051495978821,-0.662496520455869,-37.3026519845973,-1.5423051495978821
2.4999999999999998e-06,-3.092780392507037,-1.01600589555391,-41.19511482399257,-3.092780392507037
3e-06,-5.29964724401469,-1.3685334488641605,-45.949982303476105,-5.29964724401469
3.5e-06,-8.169717478506781,-1.729960222829168,-48.11479298916501,-8.169717478506781
4e-06,-11.686699264168563,-2.0611804553215793,-49.65366240412359,-11.686699264168563
4.5e-06,-15.777671539244768,-2.3512414473850773,-52.487052633917045,-15.777671539244768
4.9999999999999996e-06,-20.384064504773335,-2.6169319684132883,-54.08073292822462,-20.384064504773335
5.5e-06,-25.452912272703045,-2.854576602398238,-54.851995325789886,-25.452912272703045
6e-06,-30.918892780645052,-3.041491838131319,-56.32880460724537,-30.918892780645052
6.5e-06,-36.6833463424652,-3.1773169058209776,-57.665363280765725,-36.6833463424652
7e-06,-42.653485219560814,-3.261423357874547,-59.21245690972218,-42.653485219560814
7.499999999999999e-06,-48.733048937102495,-3.2932280003268635,-59.83856238885223,-48.733048937102495
8e-06,-54.82070306139747,-3.2691149478905768,-57.79900391829293,-54.82070306139747
8.5e-06,-60.77847362682576,-3.148549122443392,-52.810693705455904,-60.77847362682576
9e-06,-66.42696377447622,-2.9334825713553654,-48.86384735142233,-66.42696377447622
9.499999999999999e-06,-71.59974441467385,-2.636524697452108,-42.47770818866429,-71.59974441467385
9.999999999999999e-06,-76.14785912073067,-2.2652803671366013,-39.80096313138081,-76.14785912073067
1.05e-05,-79.93982412894556,-1.8223499103892062,-38.25469972659879,-79.93982412894556
1.1e-05,-82.84787417102916,-1.3158669031776302,-35.43843741971122,-82.84787417102916
1.15e-05,-84.78440602027727,-0.7735750404496684,-32.292206296702986,-84.78440602027727
1.2e-05,-85.71381477865434,-0.21978188578545632,-30.669093760493187,-85.71381477865434
1.2499999999999999e-05,-85.62774174451539,0.32578448644264646,-30.112132557565815,-85.62774174451539
1.3e-05,-84.54506793363262,0.8479738621651858,-30.908061071907255,-84.54506793363262
1.35e-05,-82.5119140791954,1.3362138876156033,-32.43520836722661,-82.5119140791954
1.4e-05,-79.60164063181028,1.7845100693302454,-31.93312058332942,-79.60164063181028
1.45e-05,-75.90921858419037,2.1892711048760813,-30.548589626604663,-75.90921858419037
1.4999999999999999e-05,-71.50845044434627,2.5461909518744146,-29.96608344838631,-71.50845044434627
1.55e-05,-66.47992889191431,2.872000368637416,-27.636053743189258,-66.47992889191431
1.6e-05,-60.884741878373234,3.1757069275524805,-23.973947704111342,-60.884741878373234
1.6499999999999998e-05,-54.75772693755917,3.4542948222853864,-18.53531246149314,-54.75772693755917
1.7e-05,-48.12587814353325,3.7019254956151824,-12.501641586867937,-48.12587814353325
1.75e-05,-41.0608620028905,3.9190508144403737,-8.936461920822948,-41.0608620028905
1.8e-05,-33.637711893643306,4.093067949001848,-6.985750685145571,-33.637711893643306
1.85e-05,-25.94091333985521,4.214921423052639,-3.683893066924288,-25.94091333985521
1.8999999999999998e-05,-18.071114357890167,4.273017408716708,0.7925733123356454,-18.071114357890167
1.95e-05,-10.140267631828685,4.275218484202485,4.963455480854476,-10.140267631828685
1.9999999999999998e-05,-2.2146913587035613,4.2656604879769215,9.440959850098782,-2.2146913587035613
2.05e-05,5.669131880625475,4.256462622441525,15.617170122773981,5.669131880625475
2.1e-05,13.502759681469609,4.224261695280067,20.559356791030826,13.502759681469609
2.1499999999999997e-05,21.236226490629402,4.116204228904234,25.430631857171004,21.236226490629402
2.2e-05,28.741705452745663,3.9850599016730803,29.229308010668223,28.741705452745663
2.2499999999999998e-05,35.984100643449494,3.831335853218765,32.38492055340606,35.984100643449494
2.3e-05,42.890920798966725,3.6265185794807078,37.52622846841777,42.890920798966725
2.35e-05,49.44126854150622,3.445274674288041,44.43316122541104,49.44126854150622
2.4e-05,55.65149278206989,3.262642734616062,52.92652362746976,55.65149278206989
2.45e-05,61.532100321545606,3.102916885117428,63.06155671251287,61.532100321545606
2.4999999999999998e-05,67.176883353947,2.9917297255782036,72.50994507305649,67.176883353947
2.55e-05,72.61244335888436,2.890236312659104,81.51186173717478,72.61244335888436
2.6e-05,77.93761884797648,2.8644757465716575,88.70681325278751,77.93761884797648
2.65e-05,83.24062749266405,2.8643951636292266,94.88032927401464,83.24062749266405
2.7e-05,88.53622589864443,2.85395943629768,99.64314395983018,88.53622589864443
2.7499999999999998e-05,93.8332200145619,2.8645360092502177,103.6753074031712,93.8332200145619
2.8e-05,99.14037149177643,2.8710114373335083,107.44044856561783,99.14037149177643
2.8499999999999998e-05,104.43854174582731,2.8532509065777503,109.84869303829582,104.43854174582731
2.9e-05,109.6833616244334,2.809752860629646,114.71146083655248,109.6833616244334
2.95e-05,114.83017627461282,2.7482939465329927,116.6158352220765,114.83017627461282
2.9999999999999997e-05,119.8253648191469,2.643458444466366,115.26728970820231,119.8253648191469
3.05e-05,124.59201625889992,2.4895661891344156,115.70941299742273,124.59201625889992
3.1e-05,129.0320066483229,2.2986808207177094,118.02230628404637,129.0320066483229
3.15e-05,133.08745152132306,2.082686839137345,121.40917863794459,133.08745152132306
3.2e-05,136.76217306547133,1.8762068440798088,125.28628961376478,136.76217306547133
3.25e-05,140.06730277688712,1.6904815971867468,127.7761524622642,140.06730277688712
3.2999999999999996e-05,143.01819911620885,1.5063034418977945,127.43990166605423,143.01819911620885
3.35e-05,145.61258457054933,1.2907285307917944,125.83486772885605,145.61258457054933
3.4e-05,147.7722356571043,1.0380536868350636,122.96115619354788,147.7722356571043
3.45e-05,149.42817837419813,0.7457108092580669,121.43851377043534,149.42817837419813
3.5e-05,150.52583291135622,0.435471350468352,119.23356209655284,150.52583291135622
3.5499999999999996e-05,151.02873892248275,0.09886182412424316,114.76978970673947,151.02873892248275
3.6e-05,150.87018288974642,-0.2751760152591296,109.47865060321536,150.87018288974642
3.65e-05,149.9760261272773,-0.6964851924387034,104.74243744939672,149.9760261272773
3.7e-05,148.28854869564296,-1.1266978616788474,98.72437063654681,148.28854869564296
3.75e-05,145.77706969522671,-1.5917558396829021,91.1877853464648,145.77706969522671
3.7999999999999995e-05,142.3809869587281,-2.073174765227552,84.44983608824086,142.3809869587281
3.85e-05,138.11395575700308,-2.541732276166279,78.5636611354402,138.11395575700308
3.9e-05,132.93211550249032,-3.056079794609466,71.9136894982434,132.93211550249032
3.95e-05,126.80028643550908,-3.5619523045240005,64.71786779244485,126.80028643550908
3.9999999999999996e-05,119.7328788440358,-4.07507107159737,57.65722363029768,119.7328788440358
4.0499999999999995e-05,111.72152798521512,-4.566253614866781,47.662070556806064,111.72152798521512
4.1e-05,102.73800893918889,-5.280530460049844,34.812433611123815,102.73800893918889
4.15e-05,90.32615622369822,-8.347479166958351,21.280890121957906,90.32615622369822
4.2e-05,71.94249716499779,-11.189006573416066,8.893851876106577,71.94249716499779
4.2499999999999996e-05,49.50405190609673,-12.660384316707695,-0.49212173589333785,49.50405190609673
4.2999999999999995e-05,25.948608976164916,-12.616834094154314,-4.919646718110671,25.948608976164916
4.35e-05,3.7273710225958734,-11.135747510316552,-6.294035810392628,3.7273710225958734
4.4e-05,-14.611931104622084,-8.548347357497564,-7.358464892259962,-14.611931104622084
4.45e-05,-27.803971989741996,-5.806455016782352,-8.89004464241141,-27.803971989741996
4.4999999999999996e-05,-37.42165093384554,-4.805737492178773,-12.244438838384877,-37.42165093384554
4.5499999999999995e-05,-45.86677085869895,-4.319172605802697,-15.756696628992566,-45.86677085869895
4.6e-05,-53.41426590564963,-3.8236487968906383,-19.12834315910954,-53.41426590564963
4.65e-05,-60.02316067561887,-3.3174164691492445,-21.851160521953673,-60.02316067561887
4.7e-05,-65.68773612278198,-2.7948882632801784,-25.34581808078906,-65.68773612278198
4.7499999999999996e-05,-70.37535817692687,-2.267412802017097,-26.743790965398496,-70.37535817692687
4.8e-05,-74.08993482127283,-1.7434654094313873,-24.453703595882807,-74.08993482127283
4.85e-05,-76.80814886840835,-1.184438283577305,-21.60473344860499,-76.80814886840835
4.9e-05,-78.43881361313235,-0.5715217515341535,-17.898347606876445,-78.43881361313235
4.95e-05,-78.91595875520379,0.05702285037390739,-13.209673926412481,-78.91595875520379
4.9999999999999996e-05,-78.21917240907632,0.6952922262579334,-9.469201423795377,-78.21917240907632
5.05e-05,-76.32170998363293,1.3557135447414035,-5.931196137343314,-76.32170998363293
5.1e-05,-73.20077466060846,2.020211633024079,-2.6659164137183162,-73.20077466060846
5.15e-05,-68.85754359768457,2.662259915613019,-0.04714639941771432,-68.85754359768457
5.2e-05,-63.37358777327063,3.2515973219455225,0.6776929627347339,-63.37358777327063
5.2499999999999995e-05,-56.869228563314756,3.7627380476087042,1.2314218682802238,-56.869228563314756
5.3e-05,-49.47362612102943,4.215345634966839,3.5136948092099027,-49.47362612102943
5.35e-05,-41.30506881569278,4.59686963745764,9.20535246134204,-41.30506881569278
5.4e-05,-32.41598142171466,5.0496899157034205,17.89943464460643,-32.41598142171466
5.4499999999999997e-05,-21.978996060995172,6.386111867257833,29.785890720400815,-21.978996060995172
5.4999999999999995e-05,-8.325276601115508,8.337248868758294,39.814725596955476,-8.325276601115508
5.55e-05,8.480972059583811,9.53265868448914,49.75172793618035,8.480972059583811
5.6e-05,26.61118367425077,9.829696427163574,60.023967607234155,26.61118367425077
5.65e-05,44.6069863953832,9.48665153430067,72.71784182041898,44.6069863953832
5.6999999999999996e-05,61.70248718979863,8.767190154314106,82.23694861915602,61.70248718979863
5.7499999999999995e-05,77.05143240349626,7.82454981033737,87.55191962982278,77.05143240349626
5.8e-05,90.33546383998514,6.445253814450795,88.8854129123277,90.33546383998514
5.85e-05,100.95715873556911,5.151357521425572,84.62019877990113,100.95715873556911
5.9e-05,109.92689249340744,4.587524238992099,77.96740818061177,109.92689249340744
5.9499999999999996e-05,117.92689627500818,4.026372631588819,70.09170726530756,117.92689627500818
5.9999999999999995e-05,124.75790600587366,3.3343613482588603,63.06297400665922,124.75790600587366
6.05e-05,130.23612914437268,2.5734140487091577,58.4639662522541,130.23612914437268
6.1e-05,134.25192747335998,1.7564313211479923,58.73853837899149,134.25192747335998
6.149999999999999e-05,136.7522121513528,0.943900518625175,61.24574134951451,136.7522121513528
6.2e-05,137.76367863647624,0.158670151844214,61.88774918583782,137.76367863647624
6.25e-05,137.34658314791858,-0.607579652810674,60.24510563153786,137.34658314791858
6.3e-05,135.51705240783687,-1.3607413126722552,58.37881994895139,135.51705240783687
6.35e-05,132.30809402601977,-2.098691202807729,54.97251802145489,132.30809402601977
6.4e-05,127.77486494246638,-2.7933122439799694,55.498662374786186,127.77486494246638
6.45e-05,122.0313296073194,-3.3999365799344883,58.746020194026215,122.0313296073194
6.5e-05,115.25420954332307,-3.9101393882496875,59.93818459331546,115.25420954332307
6.549999999999999e-05,107.60025624172773,-4.335455602805582,57.61625682813041,107.60025624172773
6.599999999999999e-05,99.22283886816211,-4.692803680837282,57.19323388902046,99.22283886816211
6.65e-05,90.24092582213989,-5.0145254722649195,57.6267668296753,90.24092582213989
6.7e-05,80.65797449633143,-5.305674095122928,59.338194863461894,80.65797449633143
6.75e-05,70.75775758514655,-5.325537407132882,57.513237831992335,70.75775758514655
6.8e-05,61.09118166456901,-5.09518062132095,53.621414317684525,61.09118166456901
6.85e-05,51.83533105596822,-4.901813450893164,49.73062332788739,51.83533105596822
6.9e-05,42.945673331163626,-4.701792421068374,45.981052357274734,42.945673331163626
6.95e-05,34.47090162318789,-4.45789230737705,41.94338418885237,34.47090162318789
7e-05,26.49357089550487,-4.160113843574951,38.73777682003647,26.49357089550487
7.049999999999999e-05,19.080136538505208,-3.8213658660558334,33.811799697485505,19.080136538505208
7.099999999999999e-05,12.294630731415019,-3.501100365362635,28.637653631452874,12.294630731415019
7.15e-05,6.10524832325242,-3.1850496653808347,24.486492862926138,6.10524832325242
7.2e-05,0.5071919511404879,-2.858271012734992,22.28413183536631,0.5071919511404879
7.25e-05,-4.4762128332558895,-2.517170201128911,21.390974158605374,-4.4762128332558895
7.3e-05,-8.806758279005065,-2.1562025278768955,17.72921606465016,-8.806758279005065
7.35e-05,-12.457384638184617,-1.785673484574919,11.452801161546551,-12.457384638184617
7.4e-05,-15.456979310211462,-1.4466111980655332,8.03769430122217,-15.456979310211462
7.45e-05,-17.857956841413177,-1.1539023844277592,5.9735699668367435,-17.857956841413177
7.5e-05,-19.73231394222821,-0.8908407316282259,3.61848150083467,-19.73231394222821
7.549999999999999e-05,-21.134375040549564,-0.6216662984524222,4.45579669115858,-21.134375040549564
7.599999999999999e-05,-22.020411707139303,-0.33329124860330583,6.789746294067348,-22.020411707139303
7.65e-05,-22.361139434504793,-0.03344800333309612,11.283577816734834,-22.361139434504793
7.7e-05,-22.118849159780662,0.309569215025415,16.91648935648933,-22.118849159780662
7.75e-05,-21.195477457078155,0.6862041987721519,26.88856272796525,-21.195477457078155
7.8e-05,-19.518301179616515,1.1256237433493177,39.83194169960492,-19.518301179616515
7.85e-05,-16.972619550615086,1.6436493667212455,51.64076368230524,-16.972619550615086
7.9e-05,-13.343704352814413,2.3012012637676422,63.7559669219149,-13.343704352814413
7.95e-05,-8.431925891093595,3.012469109662175,76.39136749086879,-8.431925891093595
7.999999999999999e-05,-2.1479588310141384,3.7813876494675798,89.48905432626617,-2.1479588310141384
8.049999999999999e-05,5.618210853683249,4.610849274794078,99.3538379992607,5.618210853683249
8.099999999999999e-05,15.845858827938326,7.376741297030182,108.82491467654417,15.845858827938326
8.15e-05,34.32327303410377,12.178043322838638,117.98746470965135,34.32327303410377
8.2e-05,59.73188149414769,14.887246107676912,121.53063705238777,59.73188149414769
8.25e-05,87.94703202505714,15.167228298676964,119.54994073940797,87.94703202505714
8.3e-05,114.24728823563741,12.890050775574025,112.29392545210126,114.24728823563741
8.35e-05,134.47860805906907,8.783245142031996,104.28066165105135,134.47860805906907
8.4e-05,146.57171829827263,5.020142580664958,98.98478304533381,146.57171829827263
8.45e-05,155.08677123619768,4.215984443177205,97.39682473162856,155.08677123619768
8.499999999999999e-05,162.187074829949,3.4485049860560757,97.28830506052515,162.187074829949
8.549999999999999e-05,167.84525522126657,2.6684747366816044,99.33833626276707,167.84525522126657
8.599999999999999e-05,172.05612288991082,1.8742681027584578,97.64106606759263,172.05612288991082
8.65e-05,174.76368477369058,1.0309988096951366,91.45126473094486,174.76368477369058
8.7e-05,175.8780936613288,0.17237243044957273,84.89295847653332,175.8780936613288
8.75e-05,175.3624612459918,-0.7316214660935758,79.55038508075751,175.3624612459918
8.8e-05,173.14734270424978,-1.6633121461872655,73.55545928508893,173.14734270424978
8.85e-05,169.23024343948447,-2.569442990291855,63.69284657436626,169.23024343948447
8.9e-05,163.60691771156377,-3.518757214146234,52.96691866935418,163.60691771156377
8.95e-05,156.1226617486897,-4.590577075140427,41.087334006962834,156.1226617486897
8.999999999999999e-05,144.8777659594895,-8.867521617475486,31.575610347443018,144.8777659594895
9.049999999999999e-05,122.40304305680945,-14.927268806433977,23.808253956585162,122.40304305680945
9.099999999999999e-05,91.32826168738056,-18.218217786465097,14.971401894445524,91.32826168738056
9.15e-05,56.79442438303556,-18.503847711197402,5.198283347734152,56.79442438303556
9.2e-05,24.013548692177082,-16.652972008045985,-5.708673497722331,24.013548692177082
9.25e-05,-4.342816895548637,-13.77546340383008,-15.210276965891016,-4.342816895548637
9.3e-05,-26.771539969918287,-10.38485538897374,-21.900771256967992,-26.771539969918287
9.35e-05,-42.83628138058462,-6.980519768303464,-28.831173831127977,-42.83628138058462
9.4e-05,-53.61935852821266,-5.0683175189706535,-34.379988534507355,-53.61935852821266
9.449999999999999e-05,-62.47694191023538,-4.555019426712201,-40.24141011282588,-62.47694191023538
9.499999999999999e-05,-70.53482073456846,-4.138481024896876,-47.0279644623932,-70.53482073456846
9.549999999999999e-05,-77.822885756125,-3.7321645888243085,-53.789740637426405,-77.822885756125
9.6e-05,-84.3683544614646,-3.3528584579793623,-61.808136730445014,-84.3683544614646
9.65e-05,-90.23107319653013,-2.9734190742891737,-70.67912465225278,-90.23107319653013
9.7e-05,-95.42708531030816,-2.645660160492643,-79.63571235839187,-95.42708531030816
9.75e-05,-100.08158615720612,-2.389273924107453,-83.46015891678526,-100.08158615720612
9.8e-05,-104.25224597810121,-2.1168800426401395,-85.64375963846109,-104.25224597810121
9.85e-05,-107.93078643938175,-1.8554845840394174,-88.38436649603636,-107.93078643938175
9.9e-05,-111.12177699053696,-1.5888840062284115,-90.24810449388309,-111.12177699053696
9.949999999999999e-05,-113.81266061385716,-1.3159511128600792,-91.62422083164324,-113.81266061385716
9.999999999999999e-05,-116.00729833221786,-1.051991832198424,-92.51268528300521,-116.00729833221786
0.00010049999999999999,-117.70716485847875,-0.7868997536332368,-91.23530713744108,-117.70716485847875
0.000101,-118.89900320145505,-0.4975103953116056,-88.07954514615645,-118.89900320145505
0.0001015,-119.5266764235819,-0.1757098808096622,-85.92748379266345,-119.5266764235819
0.000102,-119.53897406316734,0.16306107767978428,-85.22139358154593,-119.53897406316734
0.0001025,-118.9239552647258,0.4986149516590485,-86.2495579185113,-118.9239552647258
0.000103,-117.694261559797,0.81919699889684,-92.36721749288583,-117.694261559797
0.0001035,-115.97414526346996,1.025293310531257,-100.67939637665249,-115.97414526346996
0.000104,-113.9627075025121,1.1305580224462266,-104.36722386669457,-113.9627075025121
0.00010449999999999999,-111.80891506637118,1.1873593605412605,-103.06675391996413,-111.80891506637118
0.00010499999999999999,-109.56613614643845,1.2320934312855798,-100.79881664903715,-109.56613614643845
0.00010549999999999999,-107.24672146831489,1.2746448006355127,-97.09109152035494,-107.24672146831489
0.000106,-104.83226953079766,1.342781374710102,-90.8222300723373,-104.83226953079766
0.0001065,-102.25293158623924,1.4543192313552333,-77.8637075012479,-102.25293158623924
0.000107,-99.36150060003114,1.6861929770507034,-62.54225248679109,-99.36150060003114
0.0001075,-95.96659736039982,1.9831518128492125,-49.24727765529681,-95.96659736039982
0.000108,-91.98016305113626,2.340809881770764,-40.43500043624547,-91.98016305113626
0.0001085,-87.24828297509052,2.773316474175042,-36.31004548372034,-87.24828297509052
0.00010899999999999999,-81.72481755686783,3.185517755902547,-33.35131968780713,-81.72481755686783
0.00010949999999999999,-75.48604871251258,3.5509230081398724,-32.84600665372353,-75.48604871251258
0.00010999999999999999,-68.63501838015014,3.8302169815871343,-35.88676968135623,-68.63501838015014
0.00011049999999999999,-61.360536337040145,3.9915814827811946,-40.929680944902586,-61.360536337040145
0.000111,-53.92597528105663,4.015641262890384,-46.70162271534256,-53.92597528105663
0.0001115,-46.55682620561691,3.924866535022246,-48.01855891591691,-46.55682620561691
0.000112,-39.42305449691797,3.7666013480444462,-46.25516192285892,-39.42305449691797
0.0001125,-32.643479152657655,3.547137079389168,-43.28500886320149,-32.643479152657655
0.000113,-26.316370456619193,3.278326188921135,-37.41941212217954,-26.316370456619193
